
**** 12/21/21 09:14:22 ******* PSpice Lite (March 2016) ******* ID# 10813 ****

 ** Profile: "SCHEMATIC1-dfs"  [ C:\USERS\ADMIN\DESKTOP\bai_2\fsd-PSpiceFiles\SCHEMATIC1\dfs.sim ] 


 ****     CIRCUIT DESCRIPTION


******************************************************************************




** Creating circuit file "dfs.cir" 
** WARNING: THIS AUTOMATICALLY GENERATED FILE MAY BE OVERWRITTEN BY SUBSEQUENT SIMULATIONS

*Libraries: 
* Profile Libraries :
* Local Libraries :
* From [PSPICE NETLIST] section of C:\Users\ADMIN\AppData\Roaming\SPB_Data\cdssetup\OrCAD_PSpice\17.2.0\PSpice.ini file:
.lib "nomd.lib" 

*Analysis directives: 
.TRAN  0 5.00001 4.99999 
.OPTIONS ADVCONV
.PROBE64 V(alias(*)) I(alias(*)) W(alias(*)) D(alias(*)) NOISE(alias(*)) 
.INC "..\SCHEMATIC1.net" 



**** INCLUDING SCHEMATIC1.net ****
* source FSD
V_V1         N00204 0 10Vdc
R_R1         N00204 N00186  1k TC=0,0 
R_R2         0 N00186  4k TC=0,0 
R_R3         0 N00186  2k TC=0,0 
L_L1         N00186 N00149  1mH  
X_U1         0 N00149 Sw_tClose PARAMS: tClose=5 ttran=1u Rclosed=0.01
+  Ropen=100000Meg

**** RESUMING dfs.cir ****
.END

**** 12/21/21 09:14:22 ******* PSpice Lite (March 2016) ******* ID# 10813 ****

 ** Profile: "SCHEMATIC1-dfs"  [ C:\USERS\ADMIN\DESKTOP\bai_2\fsd-PSpiceFiles\SCHEMATIC1\dfs.sim ] 


 ****     Voltage Controlled Switch MODEL PARAMETERS


******************************************************************************




               X_U1.Smod       
         RON     .01         
        ROFF  100.000000E+09 
         VON    1            
        VOFF    0            


**** 12/21/21 09:14:22 ******* PSpice Lite (March 2016) ******* ID# 10813 ****

 ** Profile: "SCHEMATIC1-dfs"  [ C:\USERS\ADMIN\DESKTOP\bai_2\fsd-PSpiceFiles\SCHEMATIC1\dfs.sim ] 


 ****     INITIAL TRANSIENT SOLUTION       TEMPERATURE =   27.000 DEG C


******************************************************************************



 NODE   VOLTAGE     NODE   VOLTAGE     NODE   VOLTAGE     NODE   VOLTAGE


(N00149)    5.7143 (N00186)    5.7143 (N00204)   10.0000 (X_U1.3)    0.0000 




    VOLTAGE SOURCE CURRENTS
    NAME         CURRENT

    V_V1        -4.286E-03
    X_U1.V1      0.000E+00

    TOTAL POWER DISSIPATION   4.29E-02  WATTS



          JOB CONCLUDED

**** 12/21/21 09:14:22 ******* PSpice Lite (March 2016) ******* ID# 10813 ****

 ** Profile: "SCHEMATIC1-dfs"  [ C:\USERS\ADMIN\DESKTOP\bai_2\fsd-PSpiceFiles\SCHEMATIC1\dfs.sim ] 


 ****     JOB STATISTICS SUMMARY


******************************************************************************



  Total job time (using Solver 1)   =         .02
